T4010 000:003.619   SEGGER J-Link V7.22b Log File
T4010 000:003.787   DLL Compiled: Jun 17 2021 17:22:49
T4010 000:003.793   Logging started @ 2024-08-29 04:58
T4010 000:003.796 - 3.798ms
T4010 000:003.803 JLINK_SetWarnOutHandler(...)
T4010 000:003.808 - 0.006ms
T4010 000:003.812 JLINK_OpenEx(...)
T4010 000:005.736   Firmware: J-Link V9 compiled May  7 2021 16:26:12
T4010 000:006.297   Firmware: J-Link V9 compiled May  7 2021 16:26:12
T4010 000:006.464   Decompressing FW timestamp took 135 us
T4010 000:013.873   Hardware: V9.20
T4010 000:013.886   S/N: 26932585
T4010 000:013.893   OEM: SEGGER
T4010 000:013.899   Feature(s): GDB, RDI, FlashBP, FlashDL, JFlash, RDDI
T4010 000:015.538   TELNET listener socket opened on port 19021
T4010 000:015.681   WEBSRV Starting webserver
T4010 000:015.856   WEBSRV Webserver running on local port 19080
T4010 000:015.869 - 12.058ms returns "O.K."
T4010 000:015.880 JLINK_GetEmuCaps()
T4010 000:015.885 - 0.007ms returns 0xB9FF7BBF
T4010 000:015.894 JLINK_TIF_GetAvailable(...)
T4010 000:016.228 - 0.341ms
T4010 000:016.244 JLINK_SetErrorOutHandler(...)
T4010 000:016.248 - 0.006ms
T4010 000:016.261 JLINK_ExecCommand("ProjectFile = "D:\myTHU\电电小学期课程设计\8.HCSR04_Test\MDK\JLinkSettings.ini"", ...). 
T4010 000:037.394   Device "CORTEX-M3" selected.
T4010 000:037.750 - 21.496ms returns 0x00
T4010 000:039.464 JLINK_ExecCommand("Device = STM32F103C8", ...). 
T4010 000:041.023   Device "STM32F103C8" selected.
T4010 000:041.232 - 1.759ms returns 0x00
T4010 000:041.259 JLINK_GetHardwareVersion()
T4010 000:041.266 - 0.009ms returns 92000
T4010 000:041.271 JLINK_GetDLLVersion()
T4010 000:041.275 - 0.005ms returns 72202
T4010 000:041.279 JLINK_GetOEMString(...)
T4010 000:041.284 JLINK_GetFirmwareString(...)
T4010 000:041.289 - 0.007ms
T4010 000:045.140 JLINK_GetDLLVersion()
T4010 000:045.151 - 0.012ms returns 72202
T4010 000:045.156 JLINK_GetCompileDateTime()
T4010 000:045.159 - 0.005ms
T4010 000:046.230 JLINK_GetFirmwareString(...)
T4010 000:046.239 - 0.010ms
T4010 000:047.189 JLINK_GetHardwareVersion()
T4010 000:047.196 - 0.008ms returns 92000
T4010 000:048.119 JLINK_GetSN()
T4010 000:048.127 - 0.009ms returns 26932585
T4010 000:049.042 JLINK_GetOEMString(...)
T4010 000:057.911 JLINK_TIF_Select(JLINKARM_TIF_SWD)
T4010 000:058.976 - 1.074ms returns 0x00
T4010 000:058.990 JLINK_HasError()
T4010 000:059.000 JLINK_SetSpeed(10000)
T4010 000:059.203 - 0.211ms
T4010 000:059.216 JLINK_GetId()
T4010 000:060.694   InitTarget() start
T4010 000:060.717    J-Link Script File: Executing InitTarget()
T4010 000:072.134   InitTarget() end
T4010 000:075.330   Found SW-DP with ID 0x1BA01477
T4010 000:079.693   DPIDR: 0x1BA01477
T4010 000:081.782   Scanning AP map to find all available APs
T4010 000:084.156   AP[1]: Stopped AP scan as end of AP map has been reached
T4010 000:087.883   AP[0]: AHB-AP (IDR: 0x14770011)
T4010 000:089.710   Iterating through AP map to find AHB-AP to use
T4010 000:092.286   AP[0]: Core found
T4010 000:093.852   AP[0]: AHB-AP ROM base: 0xE00FF000
T4010 000:099.205   CPUID register: 0x411FC231. Implementer code: 0x41 (ARM)
T4010 000:100.995   Found Cortex-M3 r1p1, Little endian.
T4010 000:202.491   -- Max. mem block: 0x00010C40
T4010 000:202.847   CPU_ReadMem(4 bytes @ 0xE000EDF0)
T4010 000:203.354   CPU_WriteMem(4 bytes @ 0xE000EDF0)
T4010 000:203.939   CPU_ReadMem(4 bytes @ 0xE0002000)
T4010 000:207.457   FPUnit: 6 code (BP) slots and 2 literal slots
T4010 000:207.480   CPU_ReadMem(4 bytes @ 0xE000EDFC)
T4010 000:207.989   CPU_WriteMem(4 bytes @ 0xE000EDFC)
T4010 000:208.441   CPU_ReadMem(4 bytes @ 0xE0001000)
T4010 000:208.885   CPU_WriteMem(4 bytes @ 0xE0001000)
T4010 000:209.500   CPU_ReadMem(4 bytes @ 0xE000ED88)
T4010 000:209.881   CPU_WriteMem(4 bytes @ 0xE000ED88)
T4010 000:210.289   CPU_ReadMem(4 bytes @ 0xE000ED88)
T4010 000:210.692   CPU_WriteMem(4 bytes @ 0xE000ED88)
T4010 000:214.546   CoreSight components:
T4010 000:215.889   ROMTbl[0] @ E00FF000
T4010 000:215.902   CPU_ReadMem(64 bytes @ 0xE00FF000)
T4010 000:216.831   CPU_ReadMem(32 bytes @ 0xE000EFE0)
T4010 000:218.727   ROMTbl[0][0]: E000E000, CID: B105E00D, PID: 001BB000 SCS
T4010 000:218.743   CPU_ReadMem(32 bytes @ 0xE0001FE0)
T4010 000:220.801   ROMTbl[0][1]: E0001000, CID: B105E00D, PID: 001BB002 DWT
T4010 000:220.819   CPU_ReadMem(32 bytes @ 0xE0002FE0)
T4010 000:222.495   ROMTbl[0][2]: E0002000, CID: B105E00D, PID: 000BB003 FPB
T4010 000:222.507   CPU_ReadMem(32 bytes @ 0xE0000FE0)
T4010 000:229.472   ROMTbl[0][3]: E0000000, CID: B105E00D, PID: 001BB001 ITM
T4010 000:229.488   CPU_ReadMem(32 bytes @ 0xE0040FE0)
T4010 000:231.256   ROMTbl[0][4]: E0040000, CID: B105900D, PID: 001BB923 TPIU-Lite
T4010 000:231.727 - 172.518ms returns 0x1BA01477
T4010 000:231.746 JLINK_GetDLLVersion()
T4010 000:231.750 - 0.005ms returns 72202
T4010 000:231.754 JLINK_CORE_GetFound()
T4010 000:231.758 - 0.006ms returns 0x30000FF
T4010 000:231.763 JLINK_GetDebugInfo(0x100 = JLINKARM_ROM_TABLE_ADDR_INDEX)
T4010 000:231.768   Value=0xE00FF000
T4010 000:231.773 - 0.011ms returns 0
T4010 000:232.822 JLINK_GetDebugInfo(0x100 = JLINKARM_ROM_TABLE_ADDR_INDEX)
T4010 000:232.830   Value=0xE00FF000
T4010 000:232.834 - 0.013ms returns 0
T4010 000:232.838 JLINK_GetDebugInfo(0x101 = JLINKARM_DEBUG_INFO_ETM_ADDR_INDEX)
T4010 000:232.842   Value=0x00000000
T4010 000:232.846 - 0.009ms returns 0
T4010 000:232.852 JLINK_ReadMemEx(0xE0041FF0, 0x10 Bytes, Flags = 0x02000004)
T4010 000:232.869   CPU_ReadMem(16 bytes @ 0xE0041FF0)
T4010 000:233.459   Data:  00 00 00 00 00 00 00 00 00 00 00 00 00 00 00 00
T4010 000:233.469 - 0.618ms returns 16 (0x10)
T4010 000:233.474 JLINK_GetDebugInfo(0x102 = JLINKARM_DEBUG_INFO_MTB_ADDR_INDEX)
T4010 000:233.478   Value=0x00000000
T4010 000:233.482 - 0.009ms returns 0
T4010 000:233.486 JLINK_GetDebugInfo(0x103 = JLINKARM_DEBUG_INFO_TPIU_ADDR_INDEX)
T4010 000:233.489   Value=0xE0040000
T4010 000:233.494 - 0.009ms returns 0
T4010 000:233.497 JLINK_GetDebugInfo(0x104 = JLINKARM_DEBUG_INFO_ITM_ADDR_INDEX)
T4010 000:233.501   Value=0xE0000000
T4010 000:233.505 - 0.009ms returns 0
T4010 000:233.508 JLINK_GetDebugInfo(0x105 = JLINKARM_DEBUG_INFO_DWT_ADDR_INDEX)
T4010 000:233.512   Value=0xE0001000
T4010 000:233.516 - 0.008ms returns 0
T4010 000:233.519 JLINK_GetDebugInfo(0x106 = JLINKARM_DEBUG_INFO_FPB_ADDR_INDEX)
T4010 000:233.523   Value=0xE0002000
T4010 000:233.527 - 0.009ms returns 0
T4010 000:233.531 JLINK_GetDebugInfo(0x107 = JLINKARM_DEBUG_INFO_NVIC_ADDR_INDEX)
T4010 000:233.534   Value=0xE000E000
T4010 000:233.538 - 0.008ms returns 0
T4010 000:233.542 JLINK_GetDebugInfo(0x10C = JLINKARM_DEBUG_INFO_DBG_ADDR_INDEX)
T4010 000:233.545   Value=0xE000EDF0
T4010 000:233.549 - 0.008ms returns 0
T4010 000:233.553 JLINK_GetDebugInfo(0x01 = Unknown)
T4010 000:233.556   Value=0x00000000
T4010 000:233.561 - 0.009ms returns 0
T4010 000:233.565 JLINK_ReadMemU32(0xE000ED00, 0x1 Items)
T4010 000:233.571   CPU_ReadMem(4 bytes @ 0xE000ED00)
T4010 000:234.052   Data:  31 C2 1F 41
T4010 000:234.062   Debug reg: CPUID
T4010 000:234.066 - 0.503ms returns 1 (0x1)
T4010 000:234.072 JLINK_GetDebugInfo(0x10F = JLINKARM_DEBUG_INFO_HAS_CORTEX_M_SECURITY_EXT_INDEX)
T4010 000:234.076   Value=0x00000000
T4010 000:234.080 - 0.009ms returns 0
T4010 000:234.085 JLINK_HasError()
T4010 000:234.089 JLINK_SetResetType(JLINKARM_CM3_RESET_TYPE_NORMAL)
T4010 000:234.092 - 0.004ms returns JLINKARM_CM3_RESET_TYPE_NORMAL
T4010 000:234.096 JLINK_Reset()
T4010 000:234.114   CPU is running
T4010 000:234.120   CPU_WriteMem(4 bytes @ 0xE000EDF0)
T4010 000:234.617   CPU is running
T4010 000:234.627   CPU_WriteMem(4 bytes @ 0xE000EDFC)
T4010 000:236.288   Reset: Halt core after reset via DEMCR.VC_CORERESET.
T4010 000:240.415   Reset: Reset device via AIRCR.SYSRESETREQ.
T4010 000:240.434   CPU is running
T4010 000:240.443   CPU_WriteMem(4 bytes @ 0xE000ED0C)
T4010 000:294.212   CPU_ReadMem(4 bytes @ 0xE000EDF0)
T4010 000:294.793   CPU_ReadMem(4 bytes @ 0xE000EDF0)
T4010 000:295.291   CPU is running
T4010 000:295.318   CPU_WriteMem(4 bytes @ 0xE000EDF0)
T4010 000:295.882   CPU is running
T4010 000:295.909   CPU_WriteMem(4 bytes @ 0xE000EDFC)
T4010 000:302.231   CPU_ReadMem(4 bytes @ 0xE000EDF0)
T4010 000:305.525   CPU_WriteMem(4 bytes @ 0xE0002000)
T4010 000:306.156   CPU_ReadMem(4 bytes @ 0xE000EDFC)
T4010 000:306.803   CPU_ReadMem(4 bytes @ 0xE0001000)
T4010 000:307.329 - 73.249ms
T4010 000:307.372 JLINK_Halt()
T4010 000:307.382 - 0.014ms returns 0x00
T4010 000:307.394 JLINK_ReadMemU32(0xE000EDF0, 0x1 Items)
T4010 000:307.416   CPU_ReadMem(4 bytes @ 0xE000EDF0)
T4010 000:307.984   Data:  03 00 03 00
T4010 000:308.010   Debug reg: DHCSR
T4010 000:308.023 - 0.633ms returns 1 (0x1)
T4010 000:308.047 JLINK_WriteU32_64(0xE000EDF0, 0xA05F0003)
T4010 000:308.063   Debug reg: DHCSR
T4010 000:308.506   CPU_WriteMem(4 bytes @ 0xE000EDF0)
T4010 000:309.112 - 1.082ms returns 0 (0x00000000)
T4010 000:309.150 JLINK_WriteU32_64(0xE000EDFC, 0x01000000)
T4010 000:309.161   Debug reg: DEMCR
T4010 000:309.186   CPU_WriteMem(4 bytes @ 0xE000EDFC)
T4010 000:309.791 - 0.657ms returns 0 (0x00000000)
T4010 000:321.867 JLINK_GetHWStatus(...)
T4010 000:322.316 - 0.455ms returns 0
T4010 000:325.158 JLINK_GetNumBPUnits(Type = 0xFFFFFF00)
T4010 000:325.167 - 0.010ms returns 0x06
T4010 000:325.171 JLINK_GetNumBPUnits(Type = 0xF0)
T4010 000:325.174 - 0.004ms returns 0x2000
T4010 000:325.178 JLINK_GetNumWPUnits()
T4010 000:325.181 - 0.004ms returns 4
T4010 000:327.960 JLINK_GetSpeed()
T4010 000:327.967 - 0.008ms returns 6000
T4010 000:336.292 JLINK_ReadMemU32(0xE000E004, 0x1 Items)
T4010 000:336.332   CPU_ReadMem(4 bytes @ 0xE000E004)
T4010 000:336.776   Data:  01 00 00 00
T4010 000:336.783 - 0.493ms returns 1 (0x1)
T4010 000:336.790 JLINK_ReadMemU32(0xE000E004, 0x1 Items)
T4010 000:336.795   CPU_ReadMem(4 bytes @ 0xE000E004)
T4010 000:337.264   Data:  01 00 00 00
T4010 000:337.270 - 0.482ms returns 1 (0x1)
T4010 000:337.275 JLINK_WriteMemEx(0xE0001000, 0x0000001C Bytes, Flags = 0x02000004)
T4010 000:337.281   Data:  01 00 00 00 00 00 00 00 00 00 00 00 00 00 00 00 ...
T4010 000:337.291   CPU_WriteMem(28 bytes @ 0xE0001000)
T4010 000:337.780 - 0.506ms returns 0x1C
T4010 000:337.789 JLINK_Halt()
T4010 000:337.793 - 0.005ms returns 0x00
T4010 000:337.797 JLINK_IsHalted()
T4010 000:337.803 - 0.007ms returns TRUE
T4010 000:340.096 JLINK_WriteMem(0x20000000, 0x164 Bytes, ...)
T4010 000:340.105   Data:  00 BE 0A E0 0D 78 2D 06 68 40 08 24 40 00 00 D3 ...
T4010 000:340.303   CPU_WriteMem(356 bytes @ 0x20000000)
T4010 000:341.988 - 1.894ms returns 0x164
T4010 000:342.019 JLINK_HasError()
T4010 000:342.025 JLINK_WriteReg(R0, 0x08000000)
T4010 000:342.030 - 0.006ms returns 0
T4010 000:342.034 JLINK_WriteReg(R1, 0x007A1200)
T4010 000:342.037 - 0.004ms returns 0
T4010 000:342.041 JLINK_WriteReg(R2, 0x00000001)
T4010 000:342.044 - 0.004ms returns 0
T4010 000:342.048 JLINK_WriteReg(R3, 0x00000000)
T4010 000:342.051 - 0.004ms returns 0
T4010 000:342.055 JLINK_WriteReg(R4, 0x00000000)
T4010 000:342.058 - 0.004ms returns 0
T4010 000:342.062 JLINK_WriteReg(R5, 0x00000000)
T4010 000:342.065 - 0.004ms returns 0
T4010 000:342.069 JLINK_WriteReg(R6, 0x00000000)
T4010 000:342.072 - 0.004ms returns 0
T4010 000:342.075 JLINK_WriteReg(R7, 0x00000000)
T4010 000:342.079 - 0.004ms returns 0
T4010 000:342.082 JLINK_WriteReg(R8, 0x00000000)
T4010 000:342.089 - 0.008ms returns 0
T4010 000:342.093 JLINK_WriteReg(R9, 0x20000160)
T4010 000:342.096 - 0.004ms returns 0
T4010 000:342.099 JLINK_WriteReg(R10, 0x00000000)
T4010 000:342.103 - 0.004ms returns 0
T4010 000:342.106 JLINK_WriteReg(R11, 0x00000000)
T4010 000:342.110 - 0.005ms returns 0
T4010 000:342.113 JLINK_WriteReg(R12, 0x00000000)
T4010 000:342.117 - 0.004ms returns 0
T4010 000:342.120 JLINK_WriteReg(R13 (SP), 0x20001000)
T4010 000:342.124 - 0.005ms returns 0
T4010 000:342.128 JLINK_WriteReg(R14, 0x20000001)
T4010 000:342.131 - 0.004ms returns 0
T4010 000:342.135 JLINK_WriteReg(R15 (PC), 0x20000038)
T4010 000:342.139 - 0.006ms returns 0
T4010 000:342.143 JLINK_WriteReg(XPSR, 0x01000000)
T4010 000:342.149 - 0.008ms returns 0
T4010 000:342.154 JLINK_WriteReg(MSP, 0x20001000)
T4010 000:342.157 - 0.004ms returns 0
T4010 000:342.161 JLINK_WriteReg(PSP, 0x20001000)
T4010 000:342.164 - 0.004ms returns 0
T4010 000:342.168 JLINK_WriteReg(CFBP, 0x00000000)
T4010 000:342.171 - 0.004ms returns 0
T4010 000:342.175 JLINK_SetBPEx(Addr = 0x20000000, Type = 0xFFFFFFF2)
T4010 000:342.181   CPU_ReadMem(2 bytes @ 0x20000000)
T4010 000:342.689 - 0.520ms returns 0x00000001
T4010 000:342.700 JLINK_Go()
T4010 000:342.706   CPU_WriteMem(2 bytes @ 0x20000000)
T4010 000:343.189   CPU_ReadMem(4 bytes @ 0xE0001000)
T4010 000:343.655   CPU_WriteMem(4 bytes @ 0xE0002008)
T4010 000:343.666   CPU_WriteMem(4 bytes @ 0xE000200C)
T4010 000:343.671   CPU_WriteMem(4 bytes @ 0xE0002010)
T4010 000:343.675   CPU_WriteMem(4 bytes @ 0xE0002014)
T4010 000:343.680   CPU_WriteMem(4 bytes @ 0xE0002018)
T4010 000:343.684   CPU_WriteMem(4 bytes @ 0xE000201C)
T4010 000:344.795   CPU_WriteMem(4 bytes @ 0xE0001004)
T4010 000:347.422 - 4.728ms
T4010 000:347.433 JLINK_IsHalted()
T4010 000:349.596   CPU_ReadMem(2 bytes @ 0x20000000)
T4010 000:350.049 - 2.624ms returns TRUE
T4010 000:350.064 JLINK_ReadReg(R15 (PC))
T4010 000:350.071 - 0.010ms returns 0x20000000
T4010 000:350.077 JLINK_ClrBPEx(BPHandle = 0x00000001)
T4010 000:350.082 - 0.007ms returns 0x00
T4010 000:350.087 JLINK_ReadReg(R0)
T4010 000:350.092 - 0.006ms returns 0x00000000
T4010 000:350.310 JLINK_HasError()
T4010 000:350.317 JLINK_WriteReg(R0, 0x08000000)
T4010 000:350.322 - 0.006ms returns 0
T4010 000:350.326 JLINK_WriteReg(R1, 0x007A1200)
T4010 000:350.329 - 0.005ms returns 0
T4010 000:350.333 JLINK_WriteReg(R2, 0x00000001)
T4010 000:350.336 - 0.004ms returns 0
T4010 000:350.340 JLINK_WriteReg(R3, 0x00000000)
T4010 000:350.343 - 0.004ms returns 0
T4010 000:350.347 JLINK_WriteReg(R4, 0x00000000)
T4010 000:350.350 - 0.004ms returns 0
T4010 000:350.354 JLINK_WriteReg(R5, 0x00000000)
T4010 000:350.357 - 0.005ms returns 0
T4010 000:350.361 JLINK_WriteReg(R6, 0x00000000)
T4010 000:350.364 - 0.005ms returns 0
T4010 000:350.368 JLINK_WriteReg(R7, 0x00000000)
T4010 000:350.371 - 0.004ms returns 0
T4010 000:350.376 JLINK_WriteReg(R8, 0x00000000)
T4010 000:350.380 - 0.005ms returns 0
T4010 000:350.384 JLINK_WriteReg(R9, 0x20000160)
T4010 000:350.388 - 0.005ms returns 0
T4010 000:350.392 JLINK_WriteReg(R10, 0x00000000)
T4010 000:350.396 - 0.005ms returns 0
T4010 000:350.400 JLINK_WriteReg(R11, 0x00000000)
T4010 000:350.404 - 0.005ms returns 0
T4010 000:350.408 JLINK_WriteReg(R12, 0x00000000)
T4010 000:350.412 - 0.006ms returns 0
T4010 000:350.417 JLINK_WriteReg(R13 (SP), 0x20001000)
T4010 000:350.421 - 0.005ms returns 0
T4010 000:350.424 JLINK_WriteReg(R14, 0x20000001)
T4010 000:350.428 - 0.004ms returns 0
T4010 000:350.431 JLINK_WriteReg(R15 (PC), 0x2000007C)
T4010 000:350.435 - 0.005ms returns 0
T4010 000:350.439 JLINK_WriteReg(XPSR, 0x01000000)
T4010 000:350.442 - 0.005ms returns 0
T4010 000:350.446 JLINK_WriteReg(MSP, 0x20001000)
T4010 000:350.449 - 0.004ms returns 0
T4010 000:350.453 JLINK_WriteReg(PSP, 0x20001000)
T4010 000:350.456 - 0.004ms returns 0
T4010 000:350.460 JLINK_WriteReg(CFBP, 0x00000000)
T4010 000:350.463 - 0.004ms returns 0
T4010 000:350.467 JLINK_SetBPEx(Addr = 0x20000000, Type = 0xFFFFFFF2)
T4010 000:350.471 - 0.005ms returns 0x00000002
T4010 000:350.474 JLINK_Go()
T4010 000:350.482   CPU_ReadMem(4 bytes @ 0xE0001000)
T4010 000:353.161 - 2.704ms
T4010 000:353.184 JLINK_IsHalted()
T4010 000:353.651 - 0.475ms returns FALSE
T4010 000:353.663 JLINK_HasError()
T4010 000:380.992 JLINK_IsHalted()
T4010 000:382.931   CPU_ReadMem(2 bytes @ 0x20000000)
T4010 000:383.181 - 2.191ms returns TRUE
T4010 000:383.188 JLINK_ReadReg(R15 (PC))
T4010 000:383.194 - 0.007ms returns 0x20000000
T4010 000:383.198 JLINK_ClrBPEx(BPHandle = 0x00000002)
T4010 000:383.203 - 0.005ms returns 0x00
T4010 000:383.207 JLINK_ReadReg(R0)
T4010 000:383.211 - 0.005ms returns 0x00000000
T4010 000:436.487 JLINK_HasError()
T4010 000:436.520 JLINK_WriteReg(R0, 0x00000001)
T4010 000:436.586 - 0.070ms returns 0
T4010 000:436.595 JLINK_WriteReg(R1, 0x007A1200)
T4010 000:436.602 - 0.009ms returns 0
T4010 000:436.609 JLINK_WriteReg(R2, 0x00000001)
T4010 000:436.615 - 0.009ms returns 0
T4010 000:436.622 JLINK_WriteReg(R3, 0x00000000)
T4010 000:436.629 - 0.009ms returns 0
T4010 000:436.636 JLINK_WriteReg(R4, 0x00000000)
T4010 000:436.642 - 0.009ms returns 0
T4010 000:436.649 JLINK_WriteReg(R5, 0x00000000)
T4010 000:436.655 - 0.008ms returns 0
T4010 000:436.662 JLINK_WriteReg(R6, 0x00000000)
T4010 000:436.668 - 0.009ms returns 0
T4010 000:436.675 JLINK_WriteReg(R7, 0x00000000)
T4010 000:436.681 - 0.009ms returns 0
T4010 000:436.688 JLINK_WriteReg(R8, 0x00000000)
T4010 000:436.694 - 0.009ms returns 0
T4010 000:436.701 JLINK_WriteReg(R9, 0x20000160)
T4010 000:436.708 - 0.008ms returns 0
T4010 000:436.714 JLINK_WriteReg(R10, 0x00000000)
T4010 000:436.721 - 0.009ms returns 0
T4010 000:436.728 JLINK_WriteReg(R11, 0x00000000)
T4010 000:436.734 - 0.009ms returns 0
T4010 000:436.741 JLINK_WriteReg(R12, 0x00000000)
T4010 000:436.747 - 0.009ms returns 0
T4010 000:436.754 JLINK_WriteReg(R13 (SP), 0x20001000)
T4010 000:436.762 - 0.010ms returns 0
T4010 000:436.769 JLINK_WriteReg(R14, 0x20000001)
T4010 000:436.775 - 0.009ms returns 0
T4010 000:436.782 JLINK_WriteReg(R15 (PC), 0x2000006A)
T4010 000:436.788 - 0.009ms returns 0
T4010 000:436.795 JLINK_WriteReg(XPSR, 0x01000000)
T4010 000:436.802 - 0.009ms returns 0
T4010 000:436.809 JLINK_WriteReg(MSP, 0x20001000)
T4010 000:436.815 - 0.009ms returns 0
T4010 000:436.822 JLINK_WriteReg(PSP, 0x20001000)
T4010 000:436.828 - 0.009ms returns 0
T4010 000:436.835 JLINK_WriteReg(CFBP, 0x00000000)
T4010 000:436.841 - 0.008ms returns 0
T4010 000:436.848 JLINK_SetBPEx(Addr = 0x20000000, Type = 0xFFFFFFF2)
T4010 000:436.857 - 0.011ms returns 0x00000003
T4010 000:436.878 JLINK_Go()
T4010 000:436.899   CPU_ReadMem(4 bytes @ 0xE0001000)
T4010 000:439.582 - 2.719ms
T4010 000:439.607 JLINK_IsHalted()
T4010 000:442.092   CPU_ReadMem(2 bytes @ 0x20000000)
T4010 000:442.729 - 3.143ms returns TRUE
T4010 000:442.764 JLINK_ReadReg(R15 (PC))
T4010 000:442.783 - 0.024ms returns 0x20000000
T4010 000:442.797 JLINK_ClrBPEx(BPHandle = 0x00000003)
T4010 000:442.809 - 0.017ms returns 0x00
T4010 000:442.822 JLINK_ReadReg(R0)
T4010 000:442.833 - 0.016ms returns 0x00000000
T4010 000:447.728 JLINK_WriteMem(0x20000000, 0x164 Bytes, ...)
T4010 000:447.735   Data:  00 BE 0A E0 0D 78 2D 06 68 40 08 24 40 00 00 D3 ...
T4010 000:447.747   CPU_WriteMem(356 bytes @ 0x20000000)
T4010 000:449.554 - 1.843ms returns 0x164
T4010 000:449.610 JLINK_HasError()
T4010 000:449.616 JLINK_WriteReg(R0, 0x08000000)
T4010 000:449.623 - 0.008ms returns 0
T4010 000:449.627 JLINK_WriteReg(R1, 0x007A1200)
T4010 000:449.630 - 0.004ms returns 0
T4010 000:449.634 JLINK_WriteReg(R2, 0x00000002)
T4010 000:449.637 - 0.004ms returns 0
T4010 000:449.641 JLINK_WriteReg(R3, 0x00000000)
T4010 000:449.644 - 0.004ms returns 0
T4010 000:449.648 JLINK_WriteReg(R4, 0x00000000)
T4010 000:449.651 - 0.004ms returns 0
T4010 000:449.655 JLINK_WriteReg(R5, 0x00000000)
T4010 000:449.658 - 0.004ms returns 0
T4010 000:449.661 JLINK_WriteReg(R6, 0x00000000)
T4010 000:449.678 - 0.018ms returns 0
T4010 000:449.682 JLINK_WriteReg(R7, 0x00000000)
T4010 000:449.685 - 0.004ms returns 0
T4010 000:449.689 JLINK_WriteReg(R8, 0x00000000)
T4010 000:449.692 - 0.004ms returns 0
T4010 000:449.695 JLINK_WriteReg(R9, 0x20000160)
T4010 000:449.699 - 0.004ms returns 0
T4010 000:449.702 JLINK_WriteReg(R10, 0x00000000)
T4010 000:449.706 - 0.004ms returns 0
T4010 000:449.709 JLINK_WriteReg(R11, 0x00000000)
T4010 000:449.712 - 0.004ms returns 0
T4010 000:449.716 JLINK_WriteReg(R12, 0x00000000)
T4010 000:449.719 - 0.004ms returns 0
T4010 000:449.723 JLINK_WriteReg(R13 (SP), 0x20001000)
T4010 000:449.727 - 0.005ms returns 0
T4010 000:449.731 JLINK_WriteReg(R14, 0x20000001)
T4010 000:449.734 - 0.004ms returns 0
T4010 000:449.738 JLINK_WriteReg(R15 (PC), 0x20000038)
T4010 000:449.744 - 0.010ms returns 0
T4010 000:449.750 JLINK_WriteReg(XPSR, 0x01000000)
T4010 000:449.753 - 0.005ms returns 0
T4010 000:449.757 JLINK_WriteReg(MSP, 0x20001000)
T4010 000:449.760 - 0.004ms returns 0
T4010 000:449.764 JLINK_WriteReg(PSP, 0x20001000)
T4010 000:449.767 - 0.004ms returns 0
T4010 000:449.771 JLINK_WriteReg(CFBP, 0x00000000)
T4010 000:449.774 - 0.004ms returns 0
T4010 000:449.778 JLINK_SetBPEx(Addr = 0x20000000, Type = 0xFFFFFFF2)
T4010 000:449.786   CPU_ReadMem(2 bytes @ 0x20000000)
T4010 000:450.247 - 0.475ms returns 0x00000004
T4010 000:450.259 JLINK_Go()
T4010 000:450.266   CPU_WriteMem(2 bytes @ 0x20000000)
T4010 000:450.698   CPU_ReadMem(4 bytes @ 0xE0001000)
T4010 000:453.177 - 2.926ms
T4010 000:453.192 JLINK_IsHalted()
T4010 000:455.402   CPU_ReadMem(2 bytes @ 0x20000000)
T4010 000:455.792 - 2.606ms returns TRUE
T4010 000:455.803 JLINK_ReadReg(R15 (PC))
T4010 000:455.810 - 0.008ms returns 0x20000000
T4010 000:455.824 JLINK_ClrBPEx(BPHandle = 0x00000004)
T4010 000:455.828 - 0.005ms returns 0x00
T4010 000:455.832 JLINK_ReadReg(R0)
T4010 000:455.835 - 0.005ms returns 0x00000000
T4010 000:456.948 JLINK_WriteMem(0x20000164, 0x29C Bytes, ...)
T4010 000:456.957   Data:  C0 0C 00 20 D5 01 00 08 F5 1F 00 08 A3 1D 00 08 ...
T4010 000:456.972   CPU_WriteMem(668 bytes @ 0x20000164)
T4010 000:459.541 - 2.600ms returns 0x29C
T4010 000:459.552 JLINK_WriteMem(0x20000400, 0x164 Bytes, ...)
T4010 000:459.556   Data:  40 1C 20 62 6D 1E F6 D5 70 BD 00 00 2D E9 F0 41 ...
T4010 000:459.566   CPU_WriteMem(356 bytes @ 0x20000400)
T4010 000:461.191 - 1.645ms returns 0x164
T4010 000:461.202 JLINK_HasError()
T4010 000:461.207 JLINK_WriteReg(R0, 0x08000000)
T4010 000:461.213 - 0.007ms returns 0
T4010 000:461.217 JLINK_WriteReg(R1, 0x00000400)
T4010 000:461.220 - 0.005ms returns 0
T4010 000:461.224 JLINK_WriteReg(R2, 0x20000164)
T4010 000:461.227 - 0.004ms returns 0
T4010 000:461.231 JLINK_WriteReg(R3, 0x00000000)
T4010 000:461.234 - 0.004ms returns 0
T4010 000:461.238 JLINK_WriteReg(R4, 0x00000000)
T4010 000:461.241 - 0.004ms returns 0
T4010 000:461.245 JLINK_WriteReg(R5, 0x00000000)
T4010 000:461.248 - 0.004ms returns 0
T4010 000:461.252 JLINK_WriteReg(R6, 0x00000000)
T4010 000:461.255 - 0.004ms returns 0
T4010 000:461.259 JLINK_WriteReg(R7, 0x00000000)
T4010 000:461.262 - 0.004ms returns 0
T4010 000:461.266 JLINK_WriteReg(R8, 0x00000000)
T4010 000:461.269 - 0.004ms returns 0
T4010 000:461.273 JLINK_WriteReg(R9, 0x20000160)
T4010 000:461.277 - 0.006ms returns 0
T4010 000:461.282 JLINK_WriteReg(R10, 0x00000000)
T4010 000:461.287 - 0.007ms returns 0
T4010 000:461.292 JLINK_WriteReg(R11, 0x00000000)
T4010 000:461.296 - 0.004ms returns 0
T4010 000:461.300 JLINK_WriteReg(R12, 0x00000000)
T4010 000:461.305 - 0.007ms returns 0
T4010 000:461.309 JLINK_WriteReg(R13 (SP), 0x20001000)
T4010 000:461.313 - 0.006ms returns 0
T4010 000:461.318 JLINK_WriteReg(R14, 0x20000001)
T4010 000:461.321 - 0.005ms returns 0
T4010 000:461.326 JLINK_WriteReg(R15 (PC), 0x200000F4)
T4010 000:461.330 - 0.005ms returns 0
T4010 000:461.334 JLINK_WriteReg(XPSR, 0x01000000)
T4010 000:461.338 - 0.005ms returns 0
T4010 000:461.342 JLINK_WriteReg(MSP, 0x20001000)
T4010 000:461.346 - 0.005ms returns 0
T4010 000:461.350 JLINK_WriteReg(PSP, 0x20001000)
T4010 000:461.354 - 0.005ms returns 0
T4010 000:461.358 JLINK_WriteReg(CFBP, 0x00000000)
T4010 000:461.362 - 0.005ms returns 0
T4010 000:461.367 JLINK_SetBPEx(Addr = 0x20000000, Type = 0xFFFFFFF2)
T4010 000:461.372 - 0.006ms returns 0x00000005
T4010 000:461.376 JLINK_Go()
T4010 000:461.385   CPU_ReadMem(4 bytes @ 0xE0001000)
T4010 000:464.045 - 2.675ms
T4010 000:464.059 JLINK_IsHalted()
T4010 000:464.427 - 0.374ms returns FALSE
T4010 000:464.441 JLINK_HasError()
T4010 000:472.374 JLINK_IsHalted()
T4010 000:472.794 - 0.428ms returns FALSE
T4010 000:472.807 JLINK_HasError()
T4010 000:474.383 JLINK_IsHalted()
T4010 000:474.879 - 0.503ms returns FALSE
T4010 000:474.892 JLINK_HasError()
T4010 000:476.356 JLINK_IsHalted()
T4010 000:476.808 - 0.459ms returns FALSE
T4010 000:476.820 JLINK_HasError()
T4010 000:478.357 JLINK_IsHalted()
T4010 000:478.806 - 0.456ms returns FALSE
T4010 000:478.819 JLINK_HasError()
T4010 000:480.349 JLINK_IsHalted()
T4010 000:480.792 - 0.450ms returns FALSE
T4010 000:480.804 JLINK_HasError()
T4010 000:482.402 JLINK_IsHalted()
T4010 000:482.702 - 0.314ms returns FALSE
T4010 000:482.722 JLINK_HasError()
T4010 000:484.718 JLINK_IsHalted()
T4010 000:485.136 - 0.428ms returns FALSE
T4010 000:485.153 JLINK_HasError()
T4010 000:486.782 JLINK_IsHalted()
T4010 000:487.340 - 0.564ms returns FALSE
T4010 000:487.351 JLINK_HasError()
T4010 000:489.001 JLINK_IsHalted()
T4010 000:489.502 - 0.507ms returns FALSE
T4010 000:489.514 JLINK_HasError()
T4010 000:491.026 JLINK_IsHalted()
T4010 000:491.561 - 0.541ms returns FALSE
T4010 000:491.572 JLINK_HasError()
T4010 000:493.055 JLINK_IsHalted()
T4010 000:493.581 - 0.533ms returns FALSE
T4010 000:493.593 JLINK_HasError()
T4010 000:495.089 JLINK_IsHalted()
T4010 000:497.460   CPU_ReadMem(2 bytes @ 0x20000000)
T4010 000:497.889 - 2.812ms returns TRUE
T4010 000:497.911 JLINK_ReadReg(R15 (PC))
T4010 000:497.922 - 0.014ms returns 0x20000000
T4010 000:497.929 JLINK_ClrBPEx(BPHandle = 0x00000005)
T4010 000:497.936 - 0.009ms returns 0x00
T4010 000:497.943 JLINK_ReadReg(R0)
T4010 000:497.949 - 0.009ms returns 0x00000000
T4010 000:501.549 JLINK_WriteMem(0x20000164, 0x29C Bytes, ...)
T4010 000:501.567   Data:  40 42 45 F0 01 05 A0 61 E8 07 01 D0 25 F0 10 05 ...
T4010 000:501.586   CPU_WriteMem(668 bytes @ 0x20000164)
T4010 000:504.442 - 2.915ms returns 0x29C
T4010 000:504.473 JLINK_WriteMem(0x20000400, 0x164 Bytes, ...)
T4010 000:504.478   Data:  09 68 40 1A 41 F2 94 11 88 42 00 D9 06 E0 4F F4 ...
T4010 000:504.511   CPU_WriteMem(356 bytes @ 0x20000400)
T4010 000:506.226 - 1.760ms returns 0x164
T4010 000:506.239 JLINK_HasError()
T4010 000:506.245 JLINK_WriteReg(R0, 0x08000400)
T4010 000:506.252 - 0.009ms returns 0
T4010 000:506.257 JLINK_WriteReg(R1, 0x00000400)
T4010 000:506.260 - 0.005ms returns 0
T4010 000:506.265 JLINK_WriteReg(R2, 0x20000164)
T4010 000:506.268 - 0.005ms returns 0
T4010 000:506.273 JLINK_WriteReg(R3, 0x00000000)
T4010 000:506.277 - 0.005ms returns 0
T4010 000:506.282 JLINK_WriteReg(R4, 0x00000000)
T4010 000:506.285 - 0.005ms returns 0
T4010 000:506.290 JLINK_WriteReg(R5, 0x00000000)
T4010 000:506.293 - 0.005ms returns 0
T4010 000:506.298 JLINK_WriteReg(R6, 0x00000000)
T4010 000:506.301 - 0.005ms returns 0
T4010 000:506.306 JLINK_WriteReg(R7, 0x00000000)
T4010 000:506.309 - 0.005ms returns 0
T4010 000:506.314 JLINK_WriteReg(R8, 0x00000000)
T4010 000:506.318 - 0.005ms returns 0
T4010 000:506.322 JLINK_WriteReg(R9, 0x20000160)
T4010 000:506.325 - 0.005ms returns 0
T4010 000:506.330 JLINK_WriteReg(R10, 0x00000000)
T4010 000:506.334 - 0.005ms returns 0
T4010 000:506.338 JLINK_WriteReg(R11, 0x00000000)
T4010 000:506.342 - 0.005ms returns 0
T4010 000:506.346 JLINK_WriteReg(R12, 0x00000000)
T4010 000:506.349 - 0.005ms returns 0
T4010 000:506.354 JLINK_WriteReg(R13 (SP), 0x20001000)
T4010 000:506.359 - 0.006ms returns 0
T4010 000:506.363 JLINK_WriteReg(R14, 0x20000001)
T4010 000:506.366 - 0.005ms returns 0
T4010 000:506.370 JLINK_WriteReg(R15 (PC), 0x200000F4)
T4010 000:506.374 - 0.005ms returns 0
T4010 000:506.379 JLINK_WriteReg(XPSR, 0x01000000)
T4010 000:506.382 - 0.005ms returns 0
T4010 000:506.387 JLINK_WriteReg(MSP, 0x20001000)
T4010 000:506.390 - 0.005ms returns 0
T4010 000:506.394 JLINK_WriteReg(PSP, 0x20001000)
T4010 000:506.398 - 0.005ms returns 0
T4010 000:506.402 JLINK_WriteReg(CFBP, 0x00000000)
T4010 000:506.406 - 0.005ms returns 0
T4010 000:506.410 JLINK_SetBPEx(Addr = 0x20000000, Type = 0xFFFFFFF2)
T4010 000:506.415 - 0.006ms returns 0x00000006
T4010 000:506.419 JLINK_Go()
T4010 000:506.429   CPU_ReadMem(4 bytes @ 0xE0001000)
T4010 000:509.437 - 3.025ms
T4010 000:509.450 JLINK_IsHalted()
T4010 000:509.853 - 0.411ms returns FALSE
T4010 000:509.867 JLINK_HasError()
T4010 000:512.074 JLINK_IsHalted()
T4010 000:512.610 - 0.543ms returns FALSE
T4010 000:512.624 JLINK_HasError()
T4010 000:513.874 JLINK_IsHalted()
T4010 000:514.404 - 0.540ms returns FALSE
T4010 000:514.422 JLINK_HasError()
T4010 000:521.402 JLINK_IsHalted()
T4010 000:521.993 - 0.600ms returns FALSE
T4010 000:522.010 JLINK_HasError()
T4010 000:523.372 JLINK_IsHalted()
T4010 000:523.811 - 0.449ms returns FALSE
T4010 000:523.829 JLINK_HasError()
T4010 000:525.338 JLINK_IsHalted()
T4010 000:525.961 - 0.635ms returns FALSE
T4010 000:525.981 JLINK_HasError()
T4010 000:527.408 JLINK_IsHalted()
T4010 000:527.895 - 0.500ms returns FALSE
T4010 000:527.916 JLINK_HasError()
T4010 000:529.398 JLINK_IsHalted()
T4010 000:529.842 - 0.455ms returns FALSE
T4010 000:529.861 JLINK_HasError()
T4010 000:531.492 JLINK_IsHalted()
T4010 000:531.930 - 0.450ms returns FALSE
T4010 000:531.951 JLINK_HasError()
T4010 000:533.512 JLINK_IsHalted()
T4010 000:534.085 - 0.587ms returns FALSE
T4010 000:534.110 JLINK_HasError()
T4010 000:535.521 JLINK_IsHalted()
T4010 000:536.149 - 0.651ms returns FALSE
T4010 000:536.183 JLINK_HasError()
T4010 000:537.571 JLINK_IsHalted()
T4010 000:538.079 - 0.522ms returns FALSE
T4010 000:538.102 JLINK_HasError()
T4010 000:539.563 JLINK_IsHalted()
T4010 000:540.098 - 0.549ms returns FALSE
T4010 000:540.122 JLINK_HasError()
T4010 000:541.590 JLINK_IsHalted()
T4010 000:543.897   CPU_ReadMem(2 bytes @ 0x20000000)
T4010 000:544.268 - 2.691ms returns TRUE
T4010 000:544.291 JLINK_ReadReg(R15 (PC))
T4010 000:544.304 - 0.016ms returns 0x20000000
T4010 000:544.314 JLINK_ClrBPEx(BPHandle = 0x00000006)
T4010 000:544.322 - 0.011ms returns 0x00
T4010 000:544.331 JLINK_ReadReg(R0)
T4010 000:544.338 - 0.011ms returns 0x00000000
T4010 000:549.227 JLINK_WriteMem(0x20000164, 0x29C Bytes, ...)
T4010 000:549.243   Data:  33 49 09 1F 08 60 51 E0 30 49 78 39 20 68 88 42 ...
T4010 000:549.264   CPU_WriteMem(668 bytes @ 0x20000164)
T4010 000:552.025 - 2.831ms returns 0x29C
T4010 000:552.071 JLINK_WriteMem(0x20000400, 0x164 Bytes, ...)
T4010 000:552.080   Data:  4F F0 02 08 16 E0 DF F8 84 81 42 45 02 D1 4F F0 ...
T4010 000:552.110   CPU_WriteMem(356 bytes @ 0x20000400)
T4010 000:554.091 - 2.048ms returns 0x164
T4010 000:554.133 JLINK_HasError()
T4010 000:554.145 JLINK_WriteReg(R0, 0x08000800)
T4010 000:554.161 - 0.019ms returns 0
T4010 000:554.170 JLINK_WriteReg(R1, 0x00000400)
T4010 000:554.178 - 0.011ms returns 0
T4010 000:554.187 JLINK_WriteReg(R2, 0x20000164)
T4010 000:554.195 - 0.011ms returns 0
T4010 000:554.203 JLINK_WriteReg(R3, 0x00000000)
T4010 000:554.211 - 0.011ms returns 0
T4010 000:554.220 JLINK_WriteReg(R4, 0x00000000)
T4010 000:554.228 - 0.011ms returns 0
T4010 000:554.237 JLINK_WriteReg(R5, 0x00000000)
T4010 000:554.244 - 0.011ms returns 0
T4010 000:554.253 JLINK_WriteReg(R6, 0x00000000)
T4010 000:554.261 - 0.011ms returns 0
T4010 000:554.269 JLINK_WriteReg(R7, 0x00000000)
T4010 000:554.277 - 0.011ms returns 0
T4010 000:554.286 JLINK_WriteReg(R8, 0x00000000)
T4010 000:554.294 - 0.012ms returns 0
T4010 000:554.303 JLINK_WriteReg(R9, 0x20000160)
T4010 000:554.311 - 0.012ms returns 0
T4010 000:554.320 JLINK_WriteReg(R10, 0x00000000)
T4010 000:554.328 - 0.011ms returns 0
T4010 000:554.337 JLINK_WriteReg(R11, 0x00000000)
T4010 000:554.345 - 0.012ms returns 0
T4010 000:554.354 JLINK_WriteReg(R12, 0x00000000)
T4010 000:554.362 - 0.011ms returns 0
T4010 000:554.371 JLINK_WriteReg(R13 (SP), 0x20001000)
T4010 000:554.380 - 0.013ms returns 0
T4010 000:554.389 JLINK_WriteReg(R14, 0x20000001)
T4010 000:554.397 - 0.011ms returns 0
T4010 000:554.406 JLINK_WriteReg(R15 (PC), 0x200000F4)
T4010 000:554.414 - 0.012ms returns 0
T4010 000:554.423 JLINK_WriteReg(XPSR, 0x01000000)
T4010 000:554.431 - 0.012ms returns 0
T4010 000:554.440 JLINK_WriteReg(MSP, 0x20001000)
T4010 000:554.448 - 0.011ms returns 0
T4010 000:554.457 JLINK_WriteReg(PSP, 0x20001000)
T4010 000:554.465 - 0.011ms returns 0
T4010 000:554.474 JLINK_WriteReg(CFBP, 0x00000000)
T4010 000:554.482 - 0.071ms returns 0
T4010 000:554.556 JLINK_SetBPEx(Addr = 0x20000000, Type = 0xFFFFFFF2)
T4010 000:554.567 - 0.014ms returns 0x00000007
T4010 000:554.576 JLINK_Go()
T4010 000:554.596   CPU_ReadMem(4 bytes @ 0xE0001000)
T4010 000:557.606 - 3.054ms
T4010 000:557.639 JLINK_IsHalted()
T4010 000:558.101 - 0.474ms returns FALSE
T4010 000:558.124 JLINK_HasError()
T4010 000:559.324 JLINK_IsHalted()
T4010 000:559.726 - 0.418ms returns FALSE
T4010 000:559.752 JLINK_HasError()
T4010 000:567.363 JLINK_IsHalted()
T4010 000:567.922 - 0.579ms returns FALSE
T4010 000:567.957 JLINK_HasError()
T4010 000:569.229 JLINK_IsHalted()
T4010 000:569.767 - 0.562ms returns FALSE
T4010 000:569.806 JLINK_HasError()
T4010 000:571.186 JLINK_IsHalted()
T4010 000:571.654 - 0.479ms returns FALSE
T4010 000:571.673 JLINK_HasError()
T4010 000:573.339 JLINK_IsHalted()
T4010 000:573.918 - 0.591ms returns FALSE
T4010 000:573.938 JLINK_HasError()
T4010 000:575.263 JLINK_IsHalted()
T4010 000:575.779 - 0.536ms returns FALSE
T4010 000:575.810 JLINK_HasError()
T4010 000:585.475 JLINK_IsHalted()
T4010 000:586.079 - 0.612ms returns FALSE
T4010 000:586.093 JLINK_HasError()
T4010 000:587.513 JLINK_IsHalted()
T4010 000:587.948 - 0.444ms returns FALSE
T4010 000:587.963 JLINK_HasError()
T4010 000:589.402 JLINK_IsHalted()
T4010 000:591.615   CPU_ReadMem(2 bytes @ 0x20000000)
T4010 000:592.033 - 2.646ms returns TRUE
T4010 000:592.064 JLINK_ReadReg(R15 (PC))
T4010 000:592.075 - 0.013ms returns 0x20000000
T4010 000:592.178 JLINK_ClrBPEx(BPHandle = 0x00000007)
T4010 000:592.197 - 0.021ms returns 0x00
T4010 000:592.205 JLINK_ReadReg(R0)
T4010 000:592.211 - 0.008ms returns 0x00000000
T4010 000:594.984 JLINK_WriteMem(0x20000164, 0x29C Bytes, ...)
T4010 000:595.008   Data:  D1 F8 00 80 28 FA 03 F8 B8 F1 00 0F 7F F4 7C AE ...
T4010 000:595.034   CPU_WriteMem(668 bytes @ 0x20000164)
T4010 000:597.756 - 2.779ms returns 0x29C
T4010 000:597.769 JLINK_WriteMem(0x20000400, 0x164 Bytes, ...)
T4010 000:597.774   Data:  07 E0 25 48 40 68 00 F0 0C 00 61 68 B0 EB 81 0F ...
T4010 000:597.785   CPU_WriteMem(356 bytes @ 0x20000400)
T4010 000:599.601 - 1.839ms returns 0x164
T4010 000:599.615 JLINK_HasError()
T4010 000:599.621 JLINK_WriteReg(R0, 0x08000C00)
T4010 000:599.630 - 0.010ms returns 0
T4010 000:599.635 JLINK_WriteReg(R1, 0x00000400)
T4010 000:599.639 - 0.006ms returns 0
T4010 000:599.644 JLINK_WriteReg(R2, 0x20000164)
T4010 000:599.649 - 0.006ms returns 0
T4010 000:599.654 JLINK_WriteReg(R3, 0x00000000)
T4010 000:599.658 - 0.006ms returns 0
T4010 000:599.663 JLINK_WriteReg(R4, 0x00000000)
T4010 000:599.667 - 0.006ms returns 0
T4010 000:599.672 JLINK_WriteReg(R5, 0x00000000)
T4010 000:599.677 - 0.006ms returns 0
T4010 000:599.681 JLINK_WriteReg(R6, 0x00000000)
T4010 000:599.686 - 0.006ms returns 0
T4010 000:599.690 JLINK_WriteReg(R7, 0x00000000)
T4010 000:599.695 - 0.006ms returns 0
T4010 000:599.700 JLINK_WriteReg(R8, 0x00000000)
T4010 000:599.704 - 0.006ms returns 0
T4010 000:599.709 JLINK_WriteReg(R9, 0x20000160)
T4010 000:599.713 - 0.006ms returns 0
T4010 000:599.718 JLINK_WriteReg(R10, 0x00000000)
T4010 000:599.722 - 0.006ms returns 0
T4010 000:599.727 JLINK_WriteReg(R11, 0x00000000)
T4010 000:599.731 - 0.006ms returns 0
T4010 000:599.736 JLINK_WriteReg(R12, 0x00000000)
T4010 000:599.741 - 0.006ms returns 0
T4010 000:599.745 JLINK_WriteReg(R13 (SP), 0x20001000)
T4010 000:599.751 - 0.007ms returns 0
T4010 000:599.756 JLINK_WriteReg(R14, 0x20000001)
T4010 000:599.760 - 0.006ms returns 0
T4010 000:599.765 JLINK_WriteReg(R15 (PC), 0x200000F4)
T4010 000:599.769 - 0.006ms returns 0
T4010 000:599.774 JLINK_WriteReg(XPSR, 0x01000000)
T4010 000:599.778 - 0.006ms returns 0
T4010 000:599.783 JLINK_WriteReg(MSP, 0x20001000)
T4010 000:599.787 - 0.006ms returns 0
T4010 000:599.792 JLINK_WriteReg(PSP, 0x20001000)
T4010 000:599.797 - 0.006ms returns 0
T4010 000:599.801 JLINK_WriteReg(CFBP, 0x00000000)
T4010 000:599.807 - 0.008ms returns 0
T4010 000:599.814 JLINK_SetBPEx(Addr = 0x20000000, Type = 0xFFFFFFF2)
T4010 000:599.826 - 0.018ms returns 0x00000008
T4010 000:599.836 JLINK_Go()
T4010 000:599.859   CPU_ReadMem(4 bytes @ 0xE0001000)
T4010 000:602.305 - 2.479ms
T4010 000:602.321 JLINK_IsHalted()
T4010 000:602.820 - 0.507ms returns FALSE
T4010 000:602.849 JLINK_HasError()
T4010 000:603.929 JLINK_IsHalted()
T4010 000:604.458 - 0.538ms returns FALSE
T4010 000:604.472 JLINK_HasError()
T4010 000:605.919 JLINK_IsHalted()
T4010 000:606.452 - 0.544ms returns FALSE
T4010 000:606.469 JLINK_HasError()
T4010 000:608.030 JLINK_IsHalted()
T4010 000:608.486 - 0.463ms returns FALSE
T4010 000:608.500 JLINK_HasError()
T4010 000:609.922 JLINK_IsHalted()
T4010 000:610.406 - 0.493ms returns FALSE
T4010 000:610.422 JLINK_HasError()
T4010 000:611.925 JLINK_IsHalted()
T4010 000:612.374 - 0.458ms returns FALSE
T4010 000:612.390 JLINK_HasError()
T4010 000:614.032 JLINK_IsHalted()
T4010 000:614.407 - 0.385ms returns FALSE
T4010 000:614.424 JLINK_HasError()
T4010 000:615.917 JLINK_IsHalted()
T4010 000:616.369 - 0.462ms returns FALSE
T4010 000:616.387 JLINK_HasError()
T4010 000:617.924 JLINK_IsHalted()
T4010 000:618.422 - 0.513ms returns FALSE
T4010 000:618.446 JLINK_HasError()
T4010 000:619.901 JLINK_IsHalted()
T4010 000:620.374 - 0.486ms returns FALSE
T4010 000:620.397 JLINK_HasError()
T4010 000:621.927 JLINK_IsHalted()
T4010 000:622.445 - 0.532ms returns FALSE
T4010 000:622.468 JLINK_HasError()
T4010 000:627.947 JLINK_IsHalted()
T4010 000:628.446 - 0.507ms returns FALSE
T4010 000:628.460 JLINK_HasError()
T4010 000:629.929 JLINK_IsHalted()
T4010 000:630.445 - 0.525ms returns FALSE
T4010 000:630.460 JLINK_HasError()
T4010 000:631.857 JLINK_IsHalted()
T4010 000:632.295 - 0.448ms returns FALSE
T4010 000:632.312 JLINK_HasError()
T4010 000:633.922 JLINK_IsHalted()
T4010 000:636.342   CPU_ReadMem(2 bytes @ 0x20000000)
T4010 000:636.795 - 2.885ms returns TRUE
T4010 000:636.818 JLINK_ReadReg(R15 (PC))
T4010 000:636.831 - 0.017ms returns 0x20000000
T4010 000:636.841 JLINK_ClrBPEx(BPHandle = 0x00000008)
T4010 000:636.852 - 0.050ms returns 0x00
T4010 000:636.902 JLINK_ReadReg(R0)
T4010 000:636.915 - 0.018ms returns 0x00000000
T4010 000:640.372 JLINK_WriteMem(0x20000164, 0x29C Bytes, ...)
T4010 000:640.398   Data:  05 B0 F0 BD 02 03 04 05 06 07 08 09 0A 0B 0C 0D ...
T4010 000:640.424   CPU_WriteMem(668 bytes @ 0x20000164)
T4010 000:643.062 - 2.699ms returns 0x29C
T4010 000:643.084 JLINK_WriteMem(0x20000400, 0x164 Bytes, ...)
T4010 000:643.090   Data:  FF F7 DC FC 40 1B 64 28 01 D9 03 20 C0 E6 5F 48 ...
T4010 000:643.104   CPU_WriteMem(356 bytes @ 0x20000400)
T4010 000:644.817 - 1.739ms returns 0x164
T4010 000:644.833 JLINK_HasError()
T4010 000:644.838 JLINK_WriteReg(R0, 0x08001000)
T4010 000:644.844 - 0.007ms returns 0
T4010 000:644.849 JLINK_WriteReg(R1, 0x00000400)
T4010 000:644.853 - 0.005ms returns 0
T4010 000:644.857 JLINK_WriteReg(R2, 0x20000164)
T4010 000:644.861 - 0.005ms returns 0
T4010 000:644.866 JLINK_WriteReg(R3, 0x00000000)
T4010 000:644.869 - 0.005ms returns 0
T4010 000:644.874 JLINK_WriteReg(R4, 0x00000000)
T4010 000:644.877 - 0.005ms returns 0
T4010 000:644.882 JLINK_WriteReg(R5, 0x00000000)
T4010 000:644.885 - 0.005ms returns 0
T4010 000:644.890 JLINK_WriteReg(R6, 0x00000000)
T4010 000:644.893 - 0.005ms returns 0
T4010 000:644.898 JLINK_WriteReg(R7, 0x00000000)
T4010 000:644.901 - 0.005ms returns 0
T4010 000:644.906 JLINK_WriteReg(R8, 0x00000000)
T4010 000:644.909 - 0.005ms returns 0
T4010 000:644.914 JLINK_WriteReg(R9, 0x20000160)
T4010 000:644.917 - 0.005ms returns 0
T4010 000:645.007 JLINK_WriteReg(R10, 0x00000000)
T4010 000:645.018 - 0.013ms returns 0
T4010 000:645.023 JLINK_WriteReg(R11, 0x00000000)
T4010 000:645.027 - 0.005ms returns 0
T4010 000:645.031 JLINK_WriteReg(R12, 0x00000000)
T4010 000:645.034 - 0.004ms returns 0
T4010 000:645.037 JLINK_WriteReg(R13 (SP), 0x20001000)
T4010 000:645.042 - 0.005ms returns 0
T4010 000:645.045 JLINK_WriteReg(R14, 0x20000001)
T4010 000:645.049 - 0.004ms returns 0
T4010 000:645.052 JLINK_WriteReg(R15 (PC), 0x200000F4)
T4010 000:645.059 - 0.010ms returns 0
T4010 000:645.065 JLINK_WriteReg(XPSR, 0x01000000)
T4010 000:645.069 - 0.005ms returns 0
T4010 000:645.072 JLINK_WriteReg(MSP, 0x20001000)
T4010 000:645.075 - 0.004ms returns 0
T4010 000:645.079 JLINK_WriteReg(PSP, 0x20001000)
T4010 000:645.082 - 0.004ms returns 0
T4010 000:645.086 JLINK_WriteReg(CFBP, 0x00000000)
T4010 000:645.089 - 0.004ms returns 0
T4010 000:645.093 JLINK_SetBPEx(Addr = 0x20000000, Type = 0xFFFFFFF2)
T4010 000:645.098 - 0.006ms returns 0x00000009
T4010 000:645.102 JLINK_Go()
T4010 000:645.111   CPU_ReadMem(4 bytes @ 0xE0001000)
T4010 000:647.775 - 2.679ms
T4010 000:647.785 JLINK_IsHalted()
T4010 000:648.200 - 0.420ms returns FALSE
T4010 000:648.211 JLINK_HasError()
T4010 000:650.460 JLINK_IsHalted()
T4010 000:650.974 - 0.522ms returns FALSE
T4010 000:650.988 JLINK_HasError()
T4010 000:652.431 JLINK_IsHalted()
T4010 000:652.829 - 0.405ms returns FALSE
T4010 000:652.841 JLINK_HasError()
T4010 000:654.378 JLINK_IsHalted()
T4010 000:654.788 - 0.426ms returns FALSE
T4010 000:654.816 JLINK_HasError()
T4010 000:656.415 JLINK_IsHalted()
T4010 000:656.927 - 0.521ms returns FALSE
T4010 000:656.941 JLINK_HasError()
T4010 000:658.511 JLINK_IsHalted()
T4010 000:658.985 - 0.483ms returns FALSE
T4010 000:659.000 JLINK_HasError()
T4010 000:660.363 JLINK_IsHalted()
T4010 000:660.864 - 0.509ms returns FALSE
T4010 000:660.878 JLINK_HasError()
T4010 000:662.462 JLINK_IsHalted()
T4010 000:662.985 - 0.532ms returns FALSE
T4010 000:662.999 JLINK_HasError()
T4010 000:664.423 JLINK_IsHalted()
T4010 000:664.928 - 0.513ms returns FALSE
T4010 000:664.941 JLINK_HasError()
T4010 000:666.757 JLINK_IsHalted()
T4010 000:667.312 - 0.564ms returns FALSE
T4010 000:667.328 JLINK_HasError()
T4010 000:668.571 JLINK_IsHalted()
T4010 000:669.058 - 0.494ms returns FALSE
T4010 000:669.072 JLINK_HasError()
T4010 000:670.550 JLINK_IsHalted()
T4010 000:671.054 - 0.511ms returns FALSE
T4010 000:671.067 JLINK_HasError()
T4010 000:672.640 JLINK_IsHalted()
T4010 000:673.172 - 0.540ms returns FALSE
T4010 000:673.186 JLINK_HasError()
T4010 000:674.731 JLINK_IsHalted()
T4010 000:675.289 - 0.567ms returns FALSE
T4010 000:675.305 JLINK_HasError()
T4010 000:676.785 JLINK_IsHalted()
T4010 000:677.235 - 0.461ms returns FALSE
T4010 000:677.253 JLINK_HasError()
T4010 000:678.738 JLINK_IsHalted()
T4010 000:681.260   CPU_ReadMem(2 bytes @ 0x20000000)
T4010 000:681.798 - 3.072ms returns TRUE
T4010 000:681.820 JLINK_ReadReg(R15 (PC))
T4010 000:681.831 - 0.014ms returns 0x20000000
T4010 000:681.839 JLINK_ClrBPEx(BPHandle = 0x00000009)
T4010 000:681.845 - 0.009ms returns 0x00
T4010 000:681.853 JLINK_ReadReg(R0)
T4010 000:681.859 - 0.009ms returns 0x00000000
T4010 000:682.501 JLINK_WriteMem(0x20000164, 0x29C Bytes, ...)
T4010 000:682.514   Data:  2B FC 40 1B 02 28 01 D9 03 20 0F E6 03 48 00 68 ...
T4010 000:682.532   CPU_WriteMem(668 bytes @ 0x20000164)
T4010 000:685.200 - 2.726ms returns 0x29C
T4010 000:685.242 JLINK_WriteMem(0x20000400, 0x164 Bytes, ...)
T4010 000:685.252   Data:  00 69 C0 F3 80 10 58 B1 20 68 C0 68 C0 F3 80 10 ...
T4010 000:685.283   CPU_WriteMem(356 bytes @ 0x20000400)
T4010 000:687.003 - 1.776ms returns 0x164
T4010 000:687.030 JLINK_HasError()
T4010 000:687.043 JLINK_WriteReg(R0, 0x08001400)
T4010 000:687.058 - 0.019ms returns 0
T4010 000:687.067 JLINK_WriteReg(R1, 0x00000400)
T4010 000:687.076 - 0.012ms returns 0
T4010 000:687.085 JLINK_WriteReg(R2, 0x20000164)
T4010 000:687.093 - 0.011ms returns 0
T4010 000:687.102 JLINK_WriteReg(R3, 0x00000000)
T4010 000:687.111 - 0.012ms returns 0
T4010 000:687.120 JLINK_WriteReg(R4, 0x00000000)
T4010 000:687.128 - 0.012ms returns 0
T4010 000:687.137 JLINK_WriteReg(R5, 0x00000000)
T4010 000:687.146 - 0.011ms returns 0
T4010 000:687.155 JLINK_WriteReg(R6, 0x00000000)
T4010 000:687.163 - 0.011ms returns 0
T4010 000:687.172 JLINK_WriteReg(R7, 0x00000000)
T4010 000:687.180 - 0.011ms returns 0
T4010 000:687.189 JLINK_WriteReg(R8, 0x00000000)
T4010 000:687.234 - 0.049ms returns 0
T4010 000:687.249 JLINK_WriteReg(R9, 0x20000160)
T4010 000:687.261 - 0.015ms returns 0
T4010 000:687.270 JLINK_WriteReg(R10, 0x00000000)
T4010 000:687.278 - 0.012ms returns 0
T4010 000:687.288 JLINK_WriteReg(R11, 0x00000000)
T4010 000:687.297 - 0.012ms returns 0
T4010 000:687.306 JLINK_WriteReg(R12, 0x00000000)
T4010 000:687.314 - 0.012ms returns 0
T4010 000:687.324 JLINK_WriteReg(R13 (SP), 0x20001000)
T4010 000:687.333 - 0.013ms returns 0
T4010 000:687.342 JLINK_WriteReg(R14, 0x20000001)
T4010 000:687.350 - 0.012ms returns 0
T4010 000:687.360 JLINK_WriteReg(R15 (PC), 0x200000F4)
T4010 000:687.368 - 0.012ms returns 0
T4010 000:687.377 JLINK_WriteReg(XPSR, 0x01000000)
T4010 000:687.386 - 0.011ms returns 0
T4010 000:687.395 JLINK_WriteReg(MSP, 0x20001000)
T4010 000:687.417 - 0.026ms returns 0
T4010 000:687.427 JLINK_WriteReg(PSP, 0x20001000)
T4010 000:687.435 - 0.012ms returns 0
T4010 000:687.444 JLINK_WriteReg(CFBP, 0x00000000)
T4010 000:687.453 - 0.011ms returns 0
T4010 000:687.462 JLINK_SetBPEx(Addr = 0x20000000, Type = 0xFFFFFFF2)
T4010 000:687.472 - 0.013ms returns 0x0000000A
T4010 000:687.481 JLINK_Go()
T4010 000:687.502   CPU_ReadMem(4 bytes @ 0xE0001000)
T4010 000:690.334 - 2.880ms
T4010 000:690.372 JLINK_IsHalted()
T4010 000:690.834 - 0.476ms returns FALSE
T4010 000:690.879 JLINK_HasError()
T4010 000:692.709 JLINK_IsHalted()
T4010 000:693.316 - 0.621ms returns FALSE
T4010 000:693.340 JLINK_HasError()
T4010 000:694.779 JLINK_IsHalted()
T4010 000:695.310 - 0.550ms returns FALSE
T4010 000:695.343 JLINK_HasError()
T4010 000:696.786 JLINK_IsHalted()
T4010 000:697.404 - 0.631ms returns FALSE
T4010 000:697.428 JLINK_HasError()
T4010 000:698.778 JLINK_IsHalted()
T4010 000:699.428 - 0.664ms returns FALSE
T4010 000:699.452 JLINK_HasError()
T4010 000:700.579 JLINK_IsHalted()
T4010 000:700.959 - 0.397ms returns FALSE
T4010 000:700.987 JLINK_HasError()
T4010 000:702.644 JLINK_IsHalted()
T4010 000:703.001 - 0.373ms returns FALSE
T4010 000:703.029 JLINK_HasError()
T4010 000:704.699 JLINK_IsHalted()
T4010 000:705.253 - 0.565ms returns FALSE
T4010 000:705.271 JLINK_HasError()
T4010 000:706.751 JLINK_IsHalted()
T4010 000:707.277 - 0.536ms returns FALSE
T4010 000:707.295 JLINK_HasError()
T4010 000:708.862 JLINK_IsHalted()
T4010 000:709.495 - 0.644ms returns FALSE
T4010 000:709.515 JLINK_HasError()
T4010 000:710.817 JLINK_IsHalted()
T4010 000:711.411 - 0.606ms returns FALSE
T4010 000:711.431 JLINK_HasError()
T4010 000:712.973 JLINK_IsHalted()
T4010 000:713.476 - 0.517ms returns FALSE
T4010 000:713.499 JLINK_HasError()
T4010 000:714.960 JLINK_IsHalted()
T4010 000:715.441 - 0.506ms returns FALSE
T4010 000:715.480 JLINK_HasError()
T4010 000:716.730 JLINK_IsHalted()
T4010 000:717.132 - 0.415ms returns FALSE
T4010 000:717.154 JLINK_HasError()
T4010 000:718.728 JLINK_IsHalted()
T4010 000:719.135 - 0.420ms returns FALSE
T4010 000:719.157 JLINK_HasError()
T4010 000:720.800 JLINK_IsHalted()
T4010 000:723.214   CPU_ReadMem(2 bytes @ 0x20000000)
T4010 000:723.689 - 2.897ms returns TRUE
T4010 000:723.704 JLINK_ReadReg(R15 (PC))
T4010 000:723.712 - 0.011ms returns 0x20000000
T4010 000:723.718 JLINK_ClrBPEx(BPHandle = 0x0000000A)
T4010 000:723.723 - 0.007ms returns 0x00
T4010 000:723.729 JLINK_ReadReg(R0)
T4010 000:723.734 - 0.007ms returns 0x00000000
T4010 000:724.410 JLINK_WriteMem(0x20000164, 0x29C Bytes, ...)
T4010 000:724.420   Data:  20 46 00 F0 0C F8 02 20 84 F8 3D 00 21 1D 20 68 ...
T4010 000:724.435   CPU_WriteMem(668 bytes @ 0x20000164)
T4010 000:727.200 - 2.813ms returns 0x29C
T4010 000:727.232 JLINK_WriteMem(0x20000400, 0x164 Bytes, ...)
T4010 000:727.238   Data:  B5 27 00 08 10 B5 04 46 0C B9 01 20 10 BD A0 69 ...
T4010 000:727.258   CPU_WriteMem(356 bytes @ 0x20000400)
T4010 000:729.035 - 1.818ms returns 0x164
T4010 000:729.058 JLINK_HasError()
T4010 000:729.066 JLINK_WriteReg(R0, 0x08001800)
T4010 000:729.078 - 0.015ms returns 0
T4010 000:729.085 JLINK_WriteReg(R1, 0x00000400)
T4010 000:729.090 - 0.007ms returns 0
T4010 000:729.096 JLINK_WriteReg(R2, 0x20000164)
T4010 000:729.106 - 0.013ms returns 0
T4010 000:729.112 JLINK_WriteReg(R3, 0x00000000)
T4010 000:729.117 - 0.007ms returns 0
T4010 000:729.122 JLINK_WriteReg(R4, 0x00000000)
T4010 000:729.128 - 0.008ms returns 0
T4010 000:729.134 JLINK_WriteReg(R5, 0x00000000)
T4010 000:729.139 - 0.007ms returns 0
T4010 000:729.145 JLINK_WriteReg(R6, 0x00000000)
T4010 000:729.150 - 0.007ms returns 0
T4010 000:729.155 JLINK_WriteReg(R7, 0x00000000)
T4010 000:729.160 - 0.007ms returns 0
T4010 000:729.166 JLINK_WriteReg(R8, 0x00000000)
T4010 000:729.171 - 0.007ms returns 0
T4010 000:729.177 JLINK_WriteReg(R9, 0x20000160)
T4010 000:729.181 - 0.007ms returns 0
T4010 000:729.187 JLINK_WriteReg(R10, 0x00000000)
T4010 000:729.192 - 0.007ms returns 0
T4010 000:729.198 JLINK_WriteReg(R11, 0x00000000)
T4010 000:729.203 - 0.007ms returns 0
T4010 000:729.208 JLINK_WriteReg(R12, 0x00000000)
T4010 000:729.213 - 0.007ms returns 0
T4010 000:729.219 JLINK_WriteReg(R13 (SP), 0x20001000)
T4010 000:729.225 - 0.008ms returns 0
T4010 000:729.231 JLINK_WriteReg(R14, 0x20000001)
T4010 000:729.236 - 0.007ms returns 0
T4010 000:729.241 JLINK_WriteReg(R15 (PC), 0x200000F4)
T4010 000:729.247 - 0.007ms returns 0
T4010 000:729.253 JLINK_WriteReg(XPSR, 0x01000000)
T4010 000:729.258 - 0.007ms returns 0
T4010 000:729.263 JLINK_WriteReg(MSP, 0x20001000)
T4010 000:729.268 - 0.007ms returns 0
T4010 000:729.274 JLINK_WriteReg(PSP, 0x20001000)
T4010 000:729.279 - 0.007ms returns 0
T4010 000:729.284 JLINK_WriteReg(CFBP, 0x00000000)
T4010 000:729.289 - 0.007ms returns 0
T4010 000:729.295 JLINK_SetBPEx(Addr = 0x20000000, Type = 0xFFFFFFF2)
T4010 000:729.302 - 0.008ms returns 0x0000000B
T4010 000:729.308 JLINK_Go()
T4010 000:729.320   CPU_ReadMem(4 bytes @ 0xE0001000)
T4010 000:731.985 - 2.690ms
T4010 000:732.004 JLINK_IsHalted()
T4010 000:732.535 - 0.540ms returns FALSE
T4010 000:732.551 JLINK_HasError()
